(1566305804.950103) can7 705#05
(1566305805.950123) can7 705#05
(1566305806.950084) can7 705#05
(1566305806.951191) can7 285#610042053FEDEFBF
(1566305806.952658) can7 286#0200540BFFFFFFFF
(1566305806.952675) can7 286#0200540BFFFFFFFF
(1566305806.953820) can7 287#16001F00FFFFFFFF
(1566305806.953851) can7 287#16001F00FFFFFFFF
(1566305806.955000) can7 385#0000FFFFFFFFFFFF
(1566305806.955003) can7 385#0000FFFFFFFFFFFF
(1566305806.955005) can7 385#0000FFFFFFFFFFFF
(1566305807.950303) can7 705#05
(1566305808.950276) can7 705#05
(1566305809.950334) can7 705#05
(1566305809.950337) can7 705#05
(1566305809.950339) can7 705#05
(1566305809.950341) can7 705#05
(1566305809.951638) can7 285#61004205A4A72BBF
(1566305809.951641) can7 286#0200540BFFFFFFFF
(1566305809.951643) can7 287#16001F00FFFFFFFF
(1566305809.953243) can7 385#0000FFFFFFFFFFFF
(1566305810.950455) can7 705#05
(1566305810.950458) can7 705#05
(1566305810.950460) can7 705#05
(1566305810.950463) can7 705#05
(1566305810.951661) can7 705#05
(1566305811.950465) can7 705#05
(1566305812.950469) can7 705#05
(1566305812.950472) can7 285#610042051D7533BF
(1566305812.950476) can7 285#610042051D7533BF
(1566305812.952048) can7 286#0200540BFFFFFFFF
(1566305812.952051) can7 287#16001F00FFFFFFFF
(1566305812.952054) can7 385#0000FFFFFFFFFFFF
(1566305813.950561) can7 705#05
(1566305814.950644) can7 705#05
(1566305815.950623) can7 705#05
(1566305815.950626) can7 285#610042051D009E3F
(1566305815.950629) can7 286#0200540BFFFFFFFF
(1566305815.952224) can7 287#16001F00FFFFFFFF
(1566305815.952227) can7 287#16001F00FFFFFFFF
(1566305815.952229) can7 385#0000FFFFFFFFFFFF
(1566305816.950650) can7 705#05
(1566305817.950642) can7 705#05
(1566305818.950723) can7 705#05
(1566305818.950726) can7 705#05
(1566305818.950730) can7 705#05
(1566305818.950732) can7 705#05
(1566305818.951873) can7 705#05
(1566305818.951875) can7 285#610042050A883040
(1566305818.951878) can7 285#610042050A883040
(1566305818.953372) can7 286#0200540BFFFFFFFF
(1566305818.962202) can7 286#0200540BFFFFFFFF
(1566305818.962219) can7 287#16001F00FFFFFFFF
(1566305818.963721) can7 385#0000FFFFFFFFFFFF
(1566305819.950889) can7 705#05
(1566305820.950817) can7 705#05
(1566305821.951016) can7 705#05
(1566305821.952455) can7 285#610042059B589040
(1566305821.952458) can7 286#0200530BFFFFFFFF
(1566305821.952460) can7 287#16001F00FFFFFFFF
(1566305821.953976) can7 385#0000FFFFFFFFFFFF
(1566305822.950863) can7 705#05
(1566305823.951122) can7 705#05
(1566305824.951113) can7 705#05
(1566305824.951116) can7 285#610042053F658E40
(1566305824.952452) can7 286#0200530BFFFFFFFF
(1566305824.952455) can7 287#16001F00FFFFFFFF
(1566305824.952457) can7 385#0000FFFFFFFFFFFF
(1566305825.951066) can7 705#05
(1566305826.951232) can7 705#05
(1566305827.951278) can7 705#05
(1566305827.952423) can7 285#61004205EBC02740
(1566305827.955530) can7 286#0200540BFFFFFFFF
(1566305827.956596) can7 287#16002000FFFFFFFF
(1566305827.956599) can7 385#0000FFFFFFFFFFFF
(1566305828.951237) can7 705#05
(1566305829.951364) can7 705#05
(1566305830.951389) can7 705#05
(1566305830.951392) can7 285#610042055B526040
(1566305830.952768) can7 286#0200530BFFFFFFFF
(1566305830.952794) can7 286#0200530BFFFFFFFF
(1566305830.953899) can7 286#0200530BFFFFFFFF
(1566305830.953902) can7 287#16001F00FFFFFFFF
(1566305830.954965) can7 385#0000FFFFFFFFFFFF
(1566305831.951349) can7 705#05
(1566305831.951353) can7 705#05
(1566305832.951473) can7 705#05
(1566305833.951594) can7 705#05
(1566305833.951597) can7 285#61004205D7E62140
(1566305833.951600) can7 286#0200530BFFFFFFFF
(1566305833.953037) can7 286#0200530BFFFFFFFF
(1566305833.953040) can7 286#0200530BFFFFFFFF
(1566305833.954139) can7 286#0200530BFFFFFFFF
(1566305833.954141) can7 287#16001F00FFFFFFFF
(1566305833.955269) can7 287#16001F00FFFFFFFF
(1566305833.955271) can7 287#16001F00FFFFFFFF
(1566305833.956391) can7 287#16001F00FFFFFFFF
(1566305833.956408) can7 385#0000FFFFFFFFFFFF
(1566305834.951591) can7 705#05
(1566305835.951468) can7 705#05
(1566305836.951593) can7 705#05
(1566305836.951596) can7 285#61004205FFFC4540
(1566305836.951598) can7 286#0200530BFFFFFFFF
(1566305836.953141) can7 286#0200530BFFFFFFFF
(1566305836.953144) can7 286#0200530BFFFFFFFF
(1566305836.954242) can7 286#0200530BFFFFFFFF
(1566305836.954245) can7 287#16001F00FFFFFFFF
(1566305836.954247) can7 385#0000FFFFFFFFFFFF
(1566305836.955833) can7 385#0000FFFFFFFFFFFF
(1566305837.951755) can7 705#05
(1566305837.951759) can7 705#05
(1566305838.951679) can7 705#05
(1566305838.951713) can7 705#05
(1566305838.951716) can7 705#05
(1566305838.951718) can7 705#05
(1566305839.951769) can7 705#05
(1566305839.957589) can7 705#05
(1566305839.957592) can7 285#610042059B899C40
(1566305839.959017) can7 286#0200530BFFFFFFFF
(1566305839.959021) can7 287#16001F00FFFFFFFF
(1566305839.960118) can7 385#0000FFFFFFFFFFFF
(1566305840.951932) can7 705#05
(1566305841.951821) can7 705#05
(1566305842.951907) can7 705#05
(1566305842.953050) can7 285#61004205284F3940
(1566305842.953053) can7 286#0200530BFFFFFFFF
(1566305842.954552) can7 287#16001F00FFFFFFFF
(1566305842.954555) can7 385#0000FFFFFFFFFFFF
(1566305843.951896) can7 705#05
(1566305844.952114) can7 705#05
(1566305845.952044) can7 705#05
(1566305845.952047) can7 285#610042057C553840
(1566305845.955075) can7 286#0200540BFFFFFFFF
(1566305845.956314) can7 287#16001F00FFFFFFFF
(1566305845.956317) can7 385#0000FFFFFFFFFFFF
(1566305846.952039) can7 705#05
(1566305847.952057) can7 705#05
(1566305848.952162) can7 705#05
(1566305848.953591) can7 285#610042059A1C4140
(1566305848.955050) can7 286#0200540BFFFFFFFF
(1566305848.956248) can7 287#16001F00FFFFFFFF
(1566305848.956252) can7 385#0000FFFFFFFFFFFF
(1566305849.952304) can7 705#05
(1566305849.952308) can7 705#05
(1566305849.952310) can7 705#05
(1566305849.952328) can7 705#05
(1566305850.952197) can7 705#05
(1566305850.952201) can7 705#05
(1566305851.952273) can7 705#05
(1566305851.952275) can7 705#05
(1566305851.952278) can7 705#05
(1566305851.952280) can7 705#05
(1566305851.953358) can7 705#05
(1566305851.953360) can7 705#05
(1566305851.953363) can7 285#610042054778DABF
(1566305851.954659) can7 286#0200530BFFFFFFFF
(1566305851.954662) can7 287#16001F00FFFFFFFF
(1566305851.955785) can7 385#0000FFFFFFFFFFFF
(1566305852.952300) can7 705#05
(1566305853.952461) can7 705#05
(1566305853.952464) can7 705#05
(1566305854.952451) can7 705#05
(1566305854.952454) can7 285#61004205E8C0273F
(1566305854.952457) can7 285#61004205E8C0273F
(1566305854.953927) can7 285#61004205E8C0273F
(1566305854.953929) can7 286#0200540BFFFFFFFF
(1566305854.955056) can7 287#16001F00FFFFFFFF
(1566305854.955059) can7 385#0000FFFFFFFFFFFF
(1566305855.952510) can7 705#05
(1566305856.952462) can7 705#05
(1566305857.952618) can7 705#05
(1566305857.952621) can7 285#61004205DAE6A13F
(1566305857.952623) can7 286#0200530BFFFFFFFF
(1566305857.954199) can7 287#16001F00FFFFFFFF
(1566305857.954201) can7 287#16001F00FFFFFFFF
(1566305857.954203) can7 385#0000FFFFFFFFFFFF
(1566305858.952615) can7 705#05
(1566305859.952727) can7 705#05
(1566305859.952730) can7 705#05
(1566305859.952733) can7 705#05
(1566305860.952682) can7 705#05
(1566305860.952685) can7 285#610042053F29BF3F
(1566305860.952688) can7 286#0200530BFFFFFFFF
(1566305860.954292) can7 286#0200530BFFFFFFFF
(1566305860.954296) can7 286#0200530BFFFFFFFF
(1566305860.955361) can7 286#0200530BFFFFFFFF
(1566305860.955364) can7 286#0200530BFFFFFFFF
(1566305860.962107) can7 286#0200530BFFFFFFFF
(1566305860.962110) can7 287#16001F00FFFFFFFF
(1566305860.963609) can7 385#0000FFFFFFFFFFFF
(1566305861.952673) can7 705#05
(1566305862.952903) can7 705#05
(1566305863.952916) can7 705#05
(1566305863.952919) can7 285#610042052B13EA3E
(1566305863.952922) can7 286#0200530BFFFFFFFF
(1566305863.954226) can7 287#16001F00FFFFFFFF
(1566305863.955358) can7 385#0000FFFFFFFFFFFF
(1566305864.952944) can7 705#05
(1566305865.953091) can7 705#05
(1566305866.952985) can7 705#05
(1566305866.952988) can7 285#6100420562A1FB3F
(1566305866.954292) can7 286#0200530BFFFFFFFF
(1566305866.955416) can7 287#16001F00FFFFFFFF
(1566305866.955419) can7 385#0000FFFFFFFFFFFF
(1566305867.953114) can7 705#05
(1566305868.953077) can7 705#05
(1566305869.953041) can7 705#05
(1566305869.953044) can7 285#610042051888FF3F
(1566305869.954489) can7 286#0200540BFFFFFFFF
(1566305869.955961) can7 287#16002000FFFFFFFF
(1566305869.955964) can7 385#0000FFFFFFFFFFFF
(1566305870.953200) can7 705#05
(1566305871.953218) can7 705#05
(1566305872.953311) can7 705#05
(1566305872.953314) can7 285#610042056AB70140
(1566305872.954621) can7 286#0200530BFFFFFFFF
(1566305872.956206) can7 287#16001F00FFFFFFFF
(1566305872.956209) can7 385#0000FFFFFFFFFFFF
(1566305873.953267) can7 705#05
(1566305874.953325) can7 705#05
(1566305875.953442) can7 705#05
(1566305875.953445) can7 285#61004205F3715B40
(1566305875.953447) can7 286#0200530BFFFFFFFF
(1566305875.954815) can7 287#16001F00FFFFFFFF
(1566305875.954819) can7 385#0000FFFFFFFFFFFF
(1566305876.953526) can7 705#05
(1566305877.953413) can7 705#05
(1566305878.953630) can7 705#05
(1566305878.953634) can7 285#6100420568191A40
(1566305878.953637) can7 286#0200530BFFFFFFFF
(1566305878.954952) can7 287#16001F00FFFFFFFF
(1566305878.954955) can7 385#0000FFFFFFFFFFFF
